!ATF-55143
!s-parameters at Vds=2.7V, Id=10mA. Last updated 12/2/02 AR.

# GHZ S MA R 50

0.1	0.998	-6.4	11.044	174.9	0.006	86.2	0.819	-3.9
0.5	0.963	-31.2	10.549	155	0.026	70.4	0.786	-19.1
0.9	0.896	-53.8	9.641	137.5	0.043	57.3	0.737	-32
1.0	0.881	-59.2	9.376	133.4	0.047	54.4	0.72	-34.7
1.5	0.794	-83	8.133	115.6	0.06	42.2	0.651	-46
1.9	0.732	-99.5	7.284	103.3	0.068	34.4	0.602	-52.9
2.0	0.718	-103.4	7.087	100.6	0.07	32.6	0.592	-54.5
2.5	0.655	-122.3	6.267	87.1	0.076	24.8	0.538	-61.3
3.0	0.608	-140.2	5.599	74.8	0.082	17.9	0.485	-67.3
4.0	0.553	-175.9	4.615	51.7	0.089	5.6	0.39	-80.1
5.0	0.548	150.9	3.862	30.2	0.092	-5.4	0.321	-94.7
6.0	0.556	123.9	3.272	10.3	0.094	-14.6	0.280	-109
7.0	0.573	100.9	2.83	-8.3	0.096	-23.9	0.247	-124.1
8.0	0.590	78.6	2.481	-26.5	0.096	-32.8	0.204	-134.3
9.0	0.625	58.4	2.224	-44.3	0.102	-38	0.152	-146.7
10.0	0.699	39.2	2.002	-63.6	0.112	-49.7	0.098	166.8
11.0	0.752	22.7	1.755	-82.3	0.115	-61.1	0.112	100
12.0	0.789	8.4	1.546	-99.8	0.12	-72.4	0.167	62.3
13.0	0.815	-7	1.378	-117.8	0.122	-84.7	0.211	37
14.0	0.838	-22.8	1.231	-137	0.124	-98.3	0.274	12.6
15.0	0.862	-37.2	1.044	-155.9	0.119	-111.8	0.387	-7.6
16.0	0.856	-50.5	0.864	-173.3	0.113	-124.4	0.491	-21.5
17.0	0.872	-59.7	0.730	171.9	0.111	-135.6	0.568	-35.9
18.0	0.915	-70	0.634	156	0.107	-149.4	0.628	-51.2

! Freq    FMIN    GAMMA OPT    Rn @
! (GHz)   (dB)   Mag     Ang  50 Ohm
!
0.5	0.2	0.64	19	0.12
0.9	0.26	0.59	22.7	0.12
1.0	0.27	0.54	26	0.12
1.9	0.39	0.54	48.3	0.11
2.0	0.4	0.54	49.9	0.11
2.4	0.48	0.45	59.8	0.1
3.0	0.57	0.39	75.6	0.09
3.9	0.72	0.26	108.7	0.07
5.0	0.88	0.2	167.5	0.06
5.8	1.02	0.22	-154.8	0.07
6.0	1.04	0.21	-147.8	0.08
7.0	1.19	0.26	-107.9	0.13
8.0	1.39	0.32	-75	0.23
9.0	1.54	0.41	-51.6	0.36
10.0	1.65	0.53	-33.6	0.54